
T31D4 000:465 SEGGER J-Link V4.20p Log File (0000ms, 0464ms total)
T31D4 000:465 DLL Compiled: Nov 19 2010 15:55:07 (0000ms, 0464ms total)
T31D4 000:465 Logging started @ 2016-05-28 13:28 (0000ms, 0464ms total)
T31D4 000:465 JLINK_SetWarnOutHandler(...) (0000ms, 0464ms total)
T31D4 000:465 JLINK_OpenEx(...)
Firmware: J-Link ARM V8 compiled Jul 17 2014 12:31:18
Hardware: V8.00
S/N: 628643451
Feature(s): RDI,FlashDL,FlashBP,JFlash,GDBFULL  returns O.K. (0218ms, 0464ms total)
T31D4 000:683 JLINK_SetErrorOutHandler(...) (0000ms, 0682ms total)
T31D4 000:683 JLINK_ExecCommand("Device = STM32F107VC", ...)
                JLINK_ExecCommand("map ram 0x20000000 - 0x20004FFF", ...)  returns 0x00 (0000ms, 0000ms total)
                JLINK_AddMirrorAreaEx(Addr = 0x00000000, Size = 0x00000000) (0000ms, 0000ms total)
                returns 0x00 (0001ms, 0682ms total)
T31D4 000:685 JLINK_ExecCommand("ProjectFile = "E:\ProjectDev\VCAN\VCAN_for_STM32\MDK-ARM\JLinkSettings.ini"", ...)  returns 0x00 (0001ms, 0683ms total)
T31D4 000:687 JLINK_ExecCommand("DisableConnectionTimeout", ...)  returns 0x00 (0000ms, 0684ms total)
T31D4 000:687 JLINK_TIF_Select(JLINKARM_TIF_JTAG)  returns 0x00 (0000ms, 0684ms total)
T31D4 000:687 JLINK_SetSpeed(2000) (0001ms, 0684ms total)
T31D4 000:688 JLINK_GetHardwareVersion()  returns 0x13880 (0000ms, 0685ms total)
T31D4 000:688 JLINK_GetDLLVersion()  returns 42016 (0000ms, 0685ms total)
T31D4 000:688 JLINK_GetFirmwareString(...) (0000ms, 0685ms total)
T31D4 000:689 JLINK_GetDLLVersion()  returns 42016 (0000ms, 0685ms total)
T31D4 000:689 JLINK_GetCompileDateTime() (0000ms, 0685ms total)
T31D4 000:689 JLINK_GetFirmwareString(...) (0000ms, 0685ms total)
T31D4 000:689 JLINK_GetHardwareVersion()  returns 0x13880 (0001ms, 0685ms total)
T31D4 000:691 JLINK_Reset() >0x2F8 JTAG>TotalIRLen = 9, IRPrint = 0x0011 >0x30 JTAG> >0x210 JTAG> >0x118 JTAG> >0xD8 JTAG> >0x198 JTAG> >0x38 JTAG> >0x118 JTAG> >0xD8 JTAG> >0x2F0 JTAG> >0x2F0 JTAG> >0x198 JTAG> >0x198 JTAG>Found Cortex-M3 r1p1, Little endian. >0xD8 JTAG> >0x240 JTAG> >0x198 JTAG> >0x198 JTAG>TPIU fitted. >0x198 JTAG>ETM fitted. >0x198 JTAG> >0x198 JTAG>  FPUnit: 6 code (BP) slots and 2 literal slots >0x198 JTAG> >0x250 JTAG> >0x240 JTAG> >0x280 JTAG> >0x198 JTAG> >0x198 JTAG>
 >0x240 JTAG> >0x240 JTAG> >0x198 JTAG> >0x198 JTAG> >0x17A8 JTAG> >0x240 JTAG> >0x198 JTAG> >0x17A8 JTAG> >0x198 JTAG> -- CPU_WriteMem(4 bytes @ 0xE000EDFC) -- CPU_WriteMem(4 bytes @ 0xE0001028) -- CPU_WriteMem(4 bytes @ 0xE0001038) -- CPU_WriteMem(4 bytes @ 0xE0001048) -- CPU_WriteMem(4 bytes @ 0xE0001058) (0069ms, 0686ms total)
T31D4 000:760 JLINK_GetIdData(...) ScanLen=9 NumDevices=2 aId[0]=0x3BA00477 aIrRead[0]=0 aScanLen[0]=0 aScanRead[0]=0 (0000ms, 0755ms total)
T31D4 000:760 JLINK_JTAG_GetDeviceID(DeviceIndex = 0)  returns 0x3BA00477 (0000ms, 0755ms total)
T31D4 000:760 JLINK_JTAG_GetDeviceInfo(DeviceIndex = 0)  returns 0x00 (0000ms, 0755ms total)
T31D4 000:760 JLINK_JTAG_GetDeviceID(DeviceIndex = 1)  returns 0x6418041 (0000ms, 0755ms total)
T31D4 000:760 JLINK_JTAG_GetDeviceInfo(DeviceIndex = 1)  returns 0x00 (0000ms, 0755ms total)
T31D4 000:760 JLINK_GetDebugInfo(0x100) -- Value=0xE00FF003  returns 0x00 (0000ms, 0755ms total)
T31D4 000:760 JLINK_ReadMem (0xE00FF000, 0x0018 Bytes, ...) -- CPU_ReadMem(24 bytes @ 0xE00FF000) -- Data:  03 F0 F0 FF 03 20 F0 FF 03 30 F0 FF 03 10 F0 FF ...  returns 0x00 (0002ms, 0755ms total)
T31D4 000:762 JLINK_ReadMemU32(0xE000ED00, 0x0001 Items, ...) -- CPU_ReadMem(4 bytes @ 0xE000ED00) -- Data:  31 C2 1F 41  returns 0x01 (0000ms, 0757ms total)
T31D4 000:763 JLINK_Halt()  returns 0x00 (0000ms, 0757ms total)
T31D4 000:763 JLINK_IsHalted()  returns TRUE (0000ms, 0757ms total)
T31D4 000:763 JLINK_ReadMemU32(0xE000EDF0, 0x0001 Items, ...) -- CPU_ReadMem(4 bytes @ 0xE000EDF0) -- Data:  03 00 03 00  returns 0x01 (0002ms, 0757ms total)
T31D4 000:765 JLINK_WriteU32(0xE000EDF0, 0xA05F0003) -- CPU_WriteMem(4 bytes @ 0xE000EDF0)  returns 0x00 (0001ms, 0759ms total)
T31D4 000:766 JLINK_WriteU32(0xE000EDFC, 0x01000000) -- CPU_WriteMem(4 bytes @ 0xE000EDFC)  returns 0x00 (0001ms, 0760ms total)
T31D4 000:767 JLINK_ReadMemU32(0xE0002000, 0x0001 Items, ...) -- CPU_ReadMem(4 bytes @ 0xE0002000) -- Data:  60 02 00 00  returns 0x01 (0000ms, 0761ms total)
T31D4 000:767 JLINK_ReadMemU32(0xE0001000, 0x0001 Items, ...) -- CPU_ReadMem(4 bytes @ 0xE0001000) -- Data:  01 00 00 40  returns 0x01 (0001ms, 0761ms total)
T31D4 000:770 JLINK_GetHWStatus(...)  returns 0x00 (0001ms, 0762ms total)
T31D4 000:772 JLINK_GetNumBPUnits(Type = 0xFFFFFF00)  returns 0x06 (0000ms, 0763ms total)
T31D4 000:772 JLINK_GetNumBPUnits(Type = 0xF0)  returns 0x800 (0000ms, 0763ms total)
T31D4 000:772 JLINK_GetNumWPUnits()  returns 0x00 (0000ms, 0763ms total)
T31D4 000:773 JLINK_GetSpeed()  returns 0x7D0 (0000ms, 0763ms total)
T31D4 000:773 JLINK_ReadMemU32(0xE000E004, 0x0001 Items, ...) -- CPU_ReadMem(4 bytes @ 0xE000E004) -- Data:  02 00 00 00  returns 0x01 (0001ms, 0763ms total)
T31D4 000:774 JLINK_WriteMem(0xE0001000, 0x001C Bytes, ...) -- Data:  01 00 00 00 00 00 00 00 00 00 00 00 00 00 00 00 ... -- CPU_WriteMem(28 bytes @ 0xE0001000)  returns 0x1C (0001ms, 0764ms total)
T31D4 000:775 JLINK_ReadMem (0xE0001000, 0x001C Bytes, ...) -- CPU_ReadMem(28 bytes @ 0xE0001000) -- Data:  01 00 00 40 00 00 00 00 00 00 00 00 00 00 00 00 ...  returns 0x00 (0001ms, 0765ms total)
T31D4 000:776 JLINK_ReadReg(R15)  returns 0x080001F0 (0000ms, 0766ms total)
T31D4 000:776 JLINK_ReadReg(XPSR)  returns 0x01000000 (0000ms, 0766ms total)
T31D4 001:056 JLINK_SetResetType(JLINKARM_RESET_TYPE_NORMAL)  returns JLINKARM_RESET_TYPE_NORMAL (0000ms, 0766ms total)
T31D4 001:056 JLINK_Reset() >0x2F8 JTAG>TotalIRLen = 9, IRPrint = 0x0011 >0x30 JTAG> >0x210 JTAG> >0x118 JTAG> >0xD8 JTAG> >0x198 JTAG> >0x38 JTAG> >0x118 JTAG> >0xD8 JTAG> >0x2F0 JTAG> >0x2F0 JTAG> >0x198 JTAG> >0x198 JTAG>Found Cortex-M3 r1p1, Little endian. >0xD8 JTAG> >0x240 JTAG> >0x198 JTAG> >0x198 JTAG>TPIU fitted. >0x198 JTAG>ETM fitted. >0x198 JTAG> >0x198 JTAG>  FPUnit: 6 code (BP) slots and 2 literal slots >0x198 JTAG> >0x250 JTAG> >0x240 JTAG> >0x280 JTAG> >0x198 JTAG> >0x198 JTAG>
 >0x240 JTAG> >0x240 JTAG> >0x198 JTAG> >0x198 JTAG> >0x240 JTAG> >0x198 JTAG> >0x17A8 JTAG> >0x198 JTAG> -- CPU_WriteMem(4 bytes @ 0xE000EDFC) -- CPU_WriteMem(4 bytes @ 0xE0001028) -- CPU_WriteMem(4 bytes @ 0xE0001038) -- CPU_WriteMem(4 bytes @ 0xE0001048) -- CPU_WriteMem(4 bytes @ 0xE0001058) (0060ms, 0766ms total)
T31D4 001:116 JLINK_ReadReg(R15)  returns 0x080001F0 (0001ms, 0826ms total)
T31D4 001:117 JLINK_ReadReg(XPSR)  returns 0x01000000 (0000ms, 0827ms total)
T31D4 001:117 JLINK_ReadReg(R0)  returns 0x00000000 (0000ms, 0827ms total)
T31D4 001:117 JLINK_ReadReg(R1)  returns 0x00000003 (0000ms, 0827ms total)
T31D4 001:117 JLINK_ReadReg(R2)  returns 0x40022000 (0000ms, 0827ms total)
T31D4 001:117 JLINK_ReadReg(R3)  returns 0x04C11DB7 (0000ms, 0827ms total)
T31D4 001:117 JLINK_ReadReg(R4)  returns 0x00000000 (0000ms, 0827ms total)
T31D4 001:117 JLINK_ReadReg(R5)  returns 0x00000000 (0000ms, 0827ms total)
T31D4 001:117 JLINK_ReadReg(R6)  returns 0x00000000 (0000ms, 0827ms total)
T31D4 001:117 JLINK_ReadReg(R7)  returns 0x00000000 (0000ms, 0827ms total)
T31D4 001:117 JLINK_ReadReg(R8)  returns 0x00000000 (0000ms, 0827ms total)
T31D4 001:117 JLINK_ReadReg(R9)  returns 0x20000160 (0000ms, 0827ms total)
T31D4 001:117 JLINK_ReadReg(R10)  returns 0x00000000 (0000ms, 0827ms total)
T31D4 001:117 JLINK_ReadReg(R11)  returns 0x00000000 (0000ms, 0827ms total)
T31D4 001:117 JLINK_ReadReg(R12)  returns 0x00000000 (0000ms, 0827ms total)
T31D4 001:117 JLINK_ReadReg(R13)  returns 0x20000668 (0000ms, 0827ms total)
T31D4 001:117 JLINK_ReadReg(R14)  returns 0xFFFFFFFF (0000ms, 0827ms total)
T31D4 001:117 JLINK_ReadReg(R15)  returns 0x080001F0 (0000ms, 0827ms total)
T31D4 001:117 JLINK_ReadReg(XPSR)  returns 0x01000000 (0000ms, 0827ms total)
T31D4 001:117 JLINK_ReadReg(MSP)  returns 0x20000668 (0000ms, 0827ms total)
T31D4 001:117 JLINK_ReadReg(PSP)  returns 0x20000800 (0000ms, 0827ms total)
T31D4 001:117 JLINK_ReadReg(CFBP)  returns 0x00000000 (0000ms, 0827ms total)
T31D4 001:117 JLINK_WriteReg(R0, 0x00000000)  returns 0x00 (0000ms, 0827ms total)
T31D4 001:117 JLINK_WriteReg(R1, 0x00000003)  returns 0x00 (0000ms, 0827ms total)
T31D4 001:118 JLINK_WriteReg(R2, 0x40022000)  returns 0x00 (0000ms, 0827ms total)
T31D4 001:118 JLINK_WriteReg(R3, 0x04C11DB7)  returns 0x00 (0000ms, 0827ms total)
T31D4 001:118 JLINK_WriteReg(R4, 0x00000000)  returns 0x00 (0000ms, 0827ms total)
T31D4 001:118 JLINK_WriteReg(R5, 0x00000000)  returns 0x00 (0000ms, 0827ms total)
T31D4 001:118 JLINK_WriteReg(R6, 0x00000000)  returns 0x00 (0000ms, 0827ms total)
T31D4 001:118 JLINK_WriteReg(R7, 0x00000000)  returns 0x00 (0000ms, 0827ms total)
T31D4 001:118 JLINK_WriteReg(R8, 0x00000000)  returns 0x00 (0000ms, 0827ms total)
T31D4 001:118 JLINK_WriteReg(R9, 0x20000160)  returns 0x00 (0000ms, 0827ms total)
T31D4 001:118 JLINK_WriteReg(R10, 0x00000000)  returns 0x00 (0000ms, 0827ms total)
T31D4 001:118 JLINK_WriteReg(R11, 0x00000000)  returns 0x00 (0000ms, 0827ms total)
T31D4 001:118 JLINK_WriteReg(R12, 0x00000000)  returns 0x00 (0000ms, 0827ms total)
T31D4 001:118 JLINK_WriteReg(R13, 0x20000668)  returns 0x00 (0000ms, 0827ms total)
T31D4 001:118 JLINK_WriteReg(R14, 0xFFFFFFFF)  returns 0x00 (0000ms, 0827ms total)
T31D4 001:118 JLINK_WriteReg(R15, 0x080001F0)  returns 0x00 (0000ms, 0827ms total)
T31D4 001:118 JLINK_WriteReg(XPSR, 0x01000000)  returns 0x00 (0000ms, 0827ms total)
T31D4 001:118 JLINK_WriteReg(MSP, 0x20000668)  returns 0x00 (0000ms, 0827ms total)
T31D4 001:118 JLINK_WriteReg(PSP, 0x20000800)  returns 0x00 (0000ms, 0827ms total)
T31D4 001:118 JLINK_WriteReg(CFBP, 0x00000000)  returns 0x00 (0000ms, 0827ms total)
T31D4 001:118 JLINK_ReadReg(R0)  returns 0x00000000 (0000ms, 0827ms total)
T31D4 001:118 JLINK_ReadReg(R1)  returns 0x00000003 (0001ms, 0827ms total)
T31D4 001:119 JLINK_ReadReg(R2)  returns 0x40022000 (0000ms, 0828ms total)
T31D4 001:119 JLINK_ReadReg(R3)  returns 0x04C11DB7 (0000ms, 0828ms total)
T31D4 001:119 JLINK_ReadReg(R4)  returns 0x00000000 (0000ms, 0828ms total)
T31D4 001:119 JLINK_ReadReg(R5)  returns 0x00000000 (0000ms, 0828ms total)
T31D4 001:119 JLINK_ReadReg(R6)  returns 0x00000000 (0000ms, 0828ms total)
T31D4 001:119 JLINK_ReadReg(R7)  returns 0x00000000 (0000ms, 0828ms total)
T31D4 001:119 JLINK_ReadReg(R8)  returns 0x00000000 (0000ms, 0828ms total)
T31D4 001:119 JLINK_ReadReg(R9)  returns 0x20000160 (0000ms, 0828ms total)
T31D4 001:119 JLINK_ReadReg(R10)  returns 0x00000000 (0000ms, 0828ms total)
T31D4 001:119 JLINK_ReadReg(R11)  returns 0x00000000 (0000ms, 0828ms total)
T31D4 001:119 JLINK_ReadReg(R12)  returns 0x00000000 (0000ms, 0828ms total)
T31D4 001:119 JLINK_ReadReg(R13)  returns 0x20000668 (0000ms, 0828ms total)
T31D4 001:119 JLINK_ReadReg(R14)  returns 0xFFFFFFFF (0000ms, 0828ms total)
T31D4 001:119 JLINK_ReadReg(R15)  returns 0x080001F0 (0000ms, 0828ms total)
T31D4 001:119 JLINK_ReadReg(XPSR)  returns 0x01000000 (0000ms, 0828ms total)
T31D4 001:119 JLINK_ReadReg(MSP)  returns 0x20000668 (0000ms, 0828ms total)
T31D4 001:119 JLINK_ReadReg(PSP)  returns 0x20000800 (0000ms, 0828ms total)
T31D4 001:119 JLINK_ReadReg(CFBP)  returns 0x00000000 (0000ms, 0828ms total)
T31D4 001:119 JLINK_ReadMemU32(0xE0001004, 0x0001 Items, ...) -- CPU_ReadMem(4 bytes @ 0xE0001004) -- Data:  00 00 00 00  returns 0x01 (0001ms, 0828ms total)
T31D4 001:120 JLINK_ReadMem (0x080001F0, 0x003C Bytes, ...) -- CPU_ReadMem(128 bytes @ 0x080001C0) -- Updating C cache (128 bytes @ 0x080001C0) -- Read from C cache (60 bytes @ 0x080001F0) -- Data:  09 48 80 47 09 48 00 47 FE E7 FE E7 FE E7 FE E7 ...  returns 0x00 (0003ms, 0829ms total)
T202C 002:258 JLINK_SetBPEx(Addr = 0x0800049C, Type = 0xFFFFFFF2)  returns 0x00000001 (0001ms, 0832ms total)
T202C 002:259 JLINK_SetBPEx(Addr = 0x08000514, Type = 0xFFFFFFF2)  returns 0x00000002 (0000ms, 0833ms total)
T202C 002:259 JLINK_Go() -- CPU_WriteMem(4 bytes @ 0xE0002000) -- CPU_WriteMem(4 bytes @ 0xE0002008) -- CPU_WriteMem(4 bytes @ 0xE000200C) -- CPU_WriteMem(4 bytes @ 0xE0002010) -- CPU_WriteMem(4 bytes @ 0xE0002014) -- CPU_WriteMem(4 bytes @ 0xE0002018) -- CPU_WriteMem(4 bytes @ 0xE000201C) (0007ms, 0833ms total)
T202C 002:367 JLINK_IsHalted()  returns TRUE (0007ms, 0840ms total)
T202C 002:374 JLINK_Halt()  returns 0x00 (0000ms, 0840ms total)
T202C 002:374 JLINK_IsHalted()  returns TRUE (0000ms, 0840ms total)
T202C 002:374 JLINK_IsHalted()  returns TRUE (0000ms, 0840ms total)
T202C 002:374 JLINK_IsHalted()  returns TRUE (0000ms, 0840ms total)
T202C 002:374 JLINK_ReadReg(R15)  returns 0x0800049C (0000ms, 0840ms total)
T202C 002:374 JLINK_ReadReg(XPSR)  returns 0x21000000 (0000ms, 0840ms total)
T202C 002:374 JLINK_ClrBPEx(BPHandle = 0x00000001)  returns 0x00 (0000ms, 0840ms total)
T202C 002:374 JLINK_ClrBPEx(BPHandle = 0x00000002)  returns 0x00 (0001ms, 0840ms total)
T202C 002:375 JLINK_ReadMemU32(0xE000ED30, 0x0001 Items, ...) -- CPU_ReadMem(4 bytes @ 0xE000ED30) -- Data:  03 00 00 00  returns 0x01 (0000ms, 0841ms total)
T202C 002:375 JLINK_ReadMemU32(0xE0001028, 0x0001 Items, ...) -- CPU_ReadMem(4 bytes @ 0xE0001028) -- Data:  00 00 00 00  returns 0x01 (0001ms, 0841ms total)
T202C 002:376 JLINK_ReadMemU32(0xE0001038, 0x0001 Items, ...) -- CPU_ReadMem(4 bytes @ 0xE0001038) -- Data:  00 02 00 00  returns 0x01 (0001ms, 0842ms total)
T202C 002:377 JLINK_ReadMemU32(0xE0001048, 0x0001 Items, ...) -- CPU_ReadMem(4 bytes @ 0xE0001048) -- Data:  00 00 00 00  returns 0x01 (0001ms, 0843ms total)
T202C 002:378 JLINK_ReadMemU32(0xE0001058, 0x0001 Items, ...) -- CPU_ReadMem(4 bytes @ 0xE0001058) -- Data:  00 00 00 00  returns 0x01 (0001ms, 0844ms total)
T202C 002:379 JLINK_ReadReg(R0)  returns 0x20000068 (0000ms, 0845ms total)
T202C 002:379 JLINK_ReadReg(R1)  returns 0x20000268 (0000ms, 0845ms total)
T202C 002:379 JLINK_ReadReg(R2)  returns 0x20000268 (0000ms, 0845ms total)
T202C 002:379 JLINK_ReadReg(R3)  returns 0x20000268 (0000ms, 0845ms total)
T202C 002:379 JLINK_ReadReg(R4)  returns 0x00000000 (0000ms, 0845ms total)
T202C 002:379 JLINK_ReadReg(R5)  returns 0x20000008 (0000ms, 0845ms total)
T202C 002:379 JLINK_ReadReg(R6)  returns 0x00000000 (0000ms, 0845ms total)
T202C 002:379 JLINK_ReadReg(R7)  returns 0x00000000 (0000ms, 0845ms total)
T202C 002:379 JLINK_ReadReg(R8)  returns 0x00000000 (0000ms, 0845ms total)
T202C 002:379 JLINK_ReadReg(R9)  returns 0x20000160 (0000ms, 0845ms total)
T202C 002:379 JLINK_ReadReg(R10)  returns 0x08000558 (0000ms, 0845ms total)
T202C 002:379 JLINK_ReadReg(R11)  returns 0x00000000 (0000ms, 0845ms total)
T202C 002:379 JLINK_ReadReg(R12)  returns 0x20000048 (0000ms, 0845ms total)
T202C 002:379 JLINK_ReadReg(R13)  returns 0x20000668 (0000ms, 0845ms total)
T202C 002:379 JLINK_ReadReg(R14)  returns 0x080001DF (0000ms, 0845ms total)
T202C 002:379 JLINK_ReadReg(R15)  returns 0x0800049C (0000ms, 0845ms total)
T202C 002:379 JLINK_ReadReg(XPSR)  returns 0x21000000 (0000ms, 0845ms total)
T202C 002:379 JLINK_ReadReg(MSP)  returns 0x20000668 (0000ms, 0845ms total)
T202C 002:379 JLINK_ReadReg(PSP)  returns 0x20000800 (0000ms, 0845ms total)
T202C 002:379 JLINK_ReadReg(CFBP)  returns 0x00000000 (0000ms, 0845ms total)
T31D4 002:380 JLINK_WriteReg(R0, 0x20000068)  returns 0x00 (0000ms, 0845ms total)
T31D4 002:380 JLINK_WriteReg(R1, 0x20000268)  returns 0x00 (0000ms, 0845ms total)
T31D4 002:380 JLINK_WriteReg(R2, 0x20000268)  returns 0x00 (0000ms, 0845ms total)
T31D4 002:380 JLINK_WriteReg(R3, 0x20000268)  returns 0x00 (0000ms, 0845ms total)
T31D4 002:380 JLINK_WriteReg(R4, 0x00000000)  returns 0x00 (0000ms, 0845ms total)
T31D4 002:380 JLINK_WriteReg(R5, 0x20000008)  returns 0x00 (0000ms, 0845ms total)
T31D4 002:380 JLINK_WriteReg(R6, 0x00000000)  returns 0x00 (0000ms, 0845ms total)
T31D4 002:380 JLINK_WriteReg(R7, 0x00000000)  returns 0x00 (0000ms, 0845ms total)
T31D4 002:380 JLINK_WriteReg(R8, 0x00000000)  returns 0x00 (0000ms, 0845ms total)
T31D4 002:380 JLINK_WriteReg(R9, 0x20000160)  returns 0x00 (0000ms, 0845ms total)
T31D4 002:380 JLINK_WriteReg(R10, 0x08000558)  returns 0x00 (0000ms, 0845ms total)
T31D4 002:380 JLINK_WriteReg(R11, 0x00000000)  returns 0x00 (0000ms, 0845ms total)
T31D4 002:380 JLINK_WriteReg(R12, 0x20000048)  returns 0x00 (0000ms, 0845ms total)
T31D4 002:380 JLINK_WriteReg(R13, 0x20000668)  returns 0x00 (0000ms, 0845ms total)
T31D4 002:380 JLINK_WriteReg(R14, 0x080001DF)  returns 0x00 (0000ms, 0845ms total)
T31D4 002:380 JLINK_WriteReg(R15, 0x0800049C)  returns 0x00 (0000ms, 0845ms total)
T31D4 002:380 JLINK_WriteReg(XPSR, 0x21000000)  returns 0x00 (0000ms, 0845ms total)
T31D4 002:380 JLINK_WriteReg(MSP, 0x20000668)  returns 0x00 (0000ms, 0845ms total)
T31D4 002:380 JLINK_WriteReg(PSP, 0x20000800)  returns 0x00 (0000ms, 0845ms total)
T31D4 002:380 JLINK_WriteReg(CFBP, 0x00000000)  returns 0x00 (0000ms, 0845ms total)
T31D4 002:380 JLINK_ReadReg(R0)  returns 0x20000068 (0000ms, 0845ms total)
T31D4 002:380 JLINK_ReadReg(R1)  returns 0x20000268 (0000ms, 0845ms total)
T31D4 002:380 JLINK_ReadReg(R2)  returns 0x20000268 (0000ms, 0845ms total)
T31D4 002:380 JLINK_ReadReg(R3)  returns 0x20000268 (0000ms, 0845ms total)
T31D4 002:380 JLINK_ReadReg(R4)  returns 0x00000000 (0000ms, 0845ms total)
T31D4 002:380 JLINK_ReadReg(R5)  returns 0x20000008 (0000ms, 0845ms total)
T31D4 002:380 JLINK_ReadReg(R6)  returns 0x00000000 (0000ms, 0845ms total)
T31D4 002:380 JLINK_ReadReg(R7)  returns 0x00000000 (0000ms, 0845ms total)
T31D4 002:380 JLINK_ReadReg(R8)  returns 0x00000000 (0000ms, 0845ms total)
T31D4 002:380 JLINK_ReadReg(R9)  returns 0x20000160 (0000ms, 0845ms total)
T31D4 002:380 JLINK_ReadReg(R10)  returns 0x08000558 (0000ms, 0845ms total)
T31D4 002:380 JLINK_ReadReg(R11)  returns 0x00000000 (0000ms, 0845ms total)
T31D4 002:380 JLINK_ReadReg(R12)  returns 0x20000048 (0000ms, 0845ms total)
T31D4 002:380 JLINK_ReadReg(R13)  returns 0x20000668 (0000ms, 0845ms total)
T31D4 002:380 JLINK_ReadReg(R14)  returns 0x080001DF (0000ms, 0845ms total)
T31D4 002:380 JLINK_ReadReg(R15)  returns 0x0800049C (0000ms, 0845ms total)
T31D4 002:380 JLINK_ReadReg(XPSR)  returns 0x21000000 (0000ms, 0845ms total)
T31D4 002:380 JLINK_ReadReg(MSP)  returns 0x20000668 (0000ms, 0845ms total)
T31D4 002:380 JLINK_ReadReg(PSP)  returns 0x20000800 (0000ms, 0845ms total)
T31D4 002:380 JLINK_ReadReg(CFBP)  returns 0x00000000 (0000ms, 0845ms total)
T31D4 002:380 JLINK_ReadMemU32(0xE0001004, 0x0001 Items, ...) -- CPU_ReadMem(4 bytes @ 0xE0001004) -- Data:  5B 16 00 00  returns 0x01 (0001ms, 0845ms total)
T31D4 002:458 JLINK_ReadMem (0x0800049C, 0x003C Bytes, ...) -- CPU_ReadMem(128 bytes @ 0x08000480) -- Updating C cache (128 bytes @ 0x08000480) -- Read from C cache (60 bytes @ 0x0800049C) -- Data:  08 B5 FF F7 CD FF 01 21 40 20 FF F7 5D FF 4F F4 ...  returns 0x00 (0003ms, 0846ms total)
T202C 006:350 JLINK_Step() -- Read from C cache (2 bytes @ 0x0800049C) -- Not simulated -- CPU_WriteMem(4 bytes @ 0xE0002008) -- CPU_WriteMem(4 bytes @ 0xE000200C) -- CPU_WriteMem(4 bytes @ 0xE0002010) -- CPU_WriteMem(4 bytes @ 0xE0002014) -- CPU_WriteMem(4 bytes @ 0xE0002018) -- CPU_WriteMem(4 bytes @ 0xE000201C)  returns 0x00 (0015ms, 0849ms total)
T202C 006:365 JLINK_ReadReg(R15)  returns 0x0800049E (0000ms, 0864ms total)
T202C 006:365 JLINK_ReadReg(XPSR)  returns 0x21000000 (0000ms, 0864ms total)
T202C 006:365 JLINK_ReadReg(R0)  returns 0x20000068 (0000ms, 0864ms total)
T202C 006:365 JLINK_ReadReg(R1)  returns 0x20000268 (0000ms, 0864ms total)
T202C 006:365 JLINK_ReadReg(R2)  returns 0x20000268 (0000ms, 0864ms total)
T202C 006:365 JLINK_ReadReg(R3)  returns 0x20000268 (0000ms, 0864ms total)
T202C 006:365 JLINK_ReadReg(R4)  returns 0x00000000 (0000ms, 0864ms total)
T202C 006:365 JLINK_ReadReg(R5)  returns 0x20000008 (0000ms, 0864ms total)
T202C 006:365 JLINK_ReadReg(R6)  returns 0x00000000 (0000ms, 0864ms total)
T202C 006:365 JLINK_ReadReg(R7)  returns 0x00000000 (0000ms, 0864ms total)
T202C 006:365 JLINK_ReadReg(R8)  returns 0x00000000 (0000ms, 0864ms total)
T202C 006:365 JLINK_ReadReg(R9)  returns 0x20000160 (0000ms, 0864ms total)
T202C 006:365 JLINK_ReadReg(R10)  returns 0x08000558 (0000ms, 0864ms total)
T202C 006:365 JLINK_ReadReg(R11)  returns 0x00000000 (0000ms, 0864ms total)
T202C 006:365 JLINK_ReadReg(R12)  returns 0x20000048 (0000ms, 0864ms total)
T202C 006:366 JLINK_ReadReg(R13)  returns 0x20000660 (0000ms, 0865ms total)
T202C 006:366 JLINK_ReadReg(R14)  returns 0x080001DF (0000ms, 0865ms total)
T202C 006:366 JLINK_ReadReg(R15)  returns 0x0800049E (0000ms, 0865ms total)
T202C 006:366 JLINK_ReadReg(XPSR)  returns 0x21000000 (0000ms, 0865ms total)
T202C 006:366 JLINK_ReadReg(MSP)  returns 0x20000660 (0000ms, 0865ms total)
T202C 006:366 JLINK_ReadReg(PSP)  returns 0x20000800 (0000ms, 0865ms total)
T202C 006:366 JLINK_ReadReg(CFBP)  returns 0x00000000 (0000ms, 0865ms total)
T202C 006:366 JLINK_ReadMem (0x20000664, 0x0004 Bytes, ...) -- CPU_ReadMem(64 bytes @ 0x20000640) -- Updating C cache (64 bytes @ 0x20000640) -- Read from C cache (4 bytes @ 0x20000664) -- Data:  DF 01 00 08  returns 0x00 (0001ms, 0865ms total)
T31D4 006:368 JLINK_WriteReg(R0, 0x20000068)  returns 0x00 (0000ms, 0866ms total)
T31D4 006:368 JLINK_WriteReg(R1, 0x20000268)  returns 0x00 (0000ms, 0866ms total)
T31D4 006:368 JLINK_WriteReg(R2, 0x20000268)  returns 0x00 (0000ms, 0866ms total)
T31D4 006:368 JLINK_WriteReg(R3, 0x20000268)  returns 0x00 (0000ms, 0866ms total)
T31D4 006:368 JLINK_WriteReg(R4, 0x00000000)  returns 0x00 (0000ms, 0866ms total)
T31D4 006:368 JLINK_WriteReg(R5, 0x20000008)  returns 0x00 (0000ms, 0866ms total)
T31D4 006:368 JLINK_WriteReg(R6, 0x00000000)  returns 0x00 (0000ms, 0866ms total)
T31D4 006:368 JLINK_WriteReg(R7, 0x00000000)  returns 0x00 (0000ms, 0866ms total)
T31D4 006:368 JLINK_WriteReg(R8, 0x00000000)  returns 0x00 (0000ms, 0866ms total)
T31D4 006:368 JLINK_WriteReg(R9, 0x20000160)  returns 0x00 (0000ms, 0866ms total)
T31D4 006:368 JLINK_WriteReg(R10, 0x08000558)  returns 0x00 (0000ms, 0866ms total)
T31D4 006:368 JLINK_WriteReg(R11, 0x00000000)  returns 0x00 (0000ms, 0866ms total)
T31D4 006:368 JLINK_WriteReg(R12, 0x20000048)  returns 0x00 (0000ms, 0866ms total)
T31D4 006:368 JLINK_WriteReg(R13, 0x20000660)  returns 0x00 (0000ms, 0866ms total)
T31D4 006:368 JLINK_WriteReg(R14, 0x080001DF)  returns 0x00 (0000ms, 0866ms total)
T31D4 006:368 JLINK_WriteReg(R15, 0x0800049E)  returns 0x00 (0000ms, 0866ms total)
T31D4 006:368 JLINK_WriteReg(XPSR, 0x21000000)  returns 0x00 (0000ms, 0866ms total)
T31D4 006:368 JLINK_WriteReg(MSP, 0x20000660)  returns 0x00 (0000ms, 0866ms total)
T31D4 006:368 JLINK_WriteReg(PSP, 0x20000800)  returns 0x00 (0000ms, 0866ms total)
T31D4 006:368 JLINK_WriteReg(CFBP, 0x00000000)  returns 0x00 (0000ms, 0866ms total)
T31D4 006:368 JLINK_ReadReg(R0)  returns 0x20000068 (0000ms, 0866ms total)
T31D4 006:368 JLINK_ReadReg(R1)  returns 0x20000268 (0000ms, 0866ms total)
T31D4 006:368 JLINK_ReadReg(R2)  returns 0x20000268 (0000ms, 0866ms total)
T31D4 006:368 JLINK_ReadReg(R3)  returns 0x20000268 (0000ms, 0866ms total)
T31D4 006:368 JLINK_ReadReg(R4)  returns 0x00000000 (0000ms, 0866ms total)
T31D4 006:368 JLINK_ReadReg(R5)  returns 0x20000008 (0000ms, 0866ms total)
T31D4 006:368 JLINK_ReadReg(R6)  returns 0x00000000 (0000ms, 0866ms total)
T31D4 006:368 JLINK_ReadReg(R7)  returns 0x00000000 (0000ms, 0866ms total)
T31D4 006:368 JLINK_ReadReg(R8)  returns 0x00000000 (0000ms, 0866ms total)
T31D4 006:368 JLINK_ReadReg(R9)  returns 0x20000160 (0000ms, 0866ms total)
T31D4 006:368 JLINK_ReadReg(R10)  returns 0x08000558 (0000ms, 0866ms total)
T31D4 006:368 JLINK_ReadReg(R11)  returns 0x00000000 (0000ms, 0866ms total)
T31D4 006:368 JLINK_ReadReg(R12)  returns 0x20000048 (0000ms, 0866ms total)
T31D4 006:368 JLINK_ReadReg(R13)  returns 0x20000660 (0000ms, 0866ms total)
T31D4 006:368 JLINK_ReadReg(R14)  returns 0x080001DF (0000ms, 0866ms total)
T31D4 006:368 JLINK_ReadReg(R15)  returns 0x0800049E (0000ms, 0866ms total)
T31D4 006:368 JLINK_ReadReg(XPSR)  returns 0x21000000 (0000ms, 0866ms total)
T31D4 006:368 JLINK_ReadReg(MSP)  returns 0x20000660 (0000ms, 0866ms total)
T31D4 006:368 JLINK_ReadReg(PSP)  returns 0x20000800 (0000ms, 0866ms total)
T31D4 006:368 JLINK_ReadReg(CFBP)  returns 0x00000000 (0000ms, 0866ms total)
T31D4 006:368 JLINK_ReadMemU32(0xE0001004, 0x0001 Items, ...) -- CPU_ReadMem(4 bytes @ 0xE0001004) -- Data:  5E 16 00 00  returns 0x01 (0001ms, 0866ms total)
T202C 008:341 JLINK_Step() -- CPU_ReadMem(64 bytes @ 0x08000480) -- Updating C cache (64 bytes @ 0x08000480) -- Read from C cache (2 bytes @ 0x0800049E) -- Not simulated -- CPU_WriteMem(4 bytes @ 0xE0002008) -- CPU_WriteMem(4 bytes @ 0xE000200C) -- CPU_WriteMem(4 bytes @ 0xE0002010) -- CPU_WriteMem(4 bytes @ 0xE0002014) -- CPU_WriteMem(4 bytes @ 0xE0002018) -- CPU_WriteMem(4 bytes @ 0xE000201C)  returns 0x00 (0017ms, 0867ms total)
T202C 008:358 JLINK_ReadReg(R15)  returns 0x0800043C (0000ms, 0884ms total)
T202C 008:358 JLINK_ReadReg(XPSR)  returns 0x21000000 (0000ms, 0884ms total)
T202C 008:359 JLINK_ReadReg(R0)  returns 0x20000068 (0000ms, 0884ms total)
T202C 008:359 JLINK_ReadReg(R1)  returns 0x20000268 (0000ms, 0884ms total)
T202C 008:359 JLINK_ReadReg(R2)  returns 0x20000268 (0000ms, 0884ms total)
T202C 008:359 JLINK_ReadReg(R3)  returns 0x20000268 (0000ms, 0884ms total)
T202C 008:359 JLINK_ReadReg(R4)  returns 0x00000000 (0000ms, 0884ms total)
T202C 008:359 JLINK_ReadReg(R5)  returns 0x20000008 (0000ms, 0884ms total)
T202C 008:359 JLINK_ReadReg(R6)  returns 0x00000000 (0000ms, 0884ms total)
T202C 008:359 JLINK_ReadReg(R7)  returns 0x00000000 (0000ms, 0884ms total)
T202C 008:359 JLINK_ReadReg(R8)  returns 0x00000000 (0000ms, 0884ms total)
T202C 008:359 JLINK_ReadReg(R9)  returns 0x20000160 (0000ms, 0884ms total)
T202C 008:359 JLINK_ReadReg(R10)  returns 0x08000558 (0000ms, 0884ms total)
T202C 008:359 JLINK_ReadReg(R11)  returns 0x00000000 (0000ms, 0884ms total)
T202C 008:359 JLINK_ReadReg(R12)  returns 0x20000048 (0000ms, 0884ms total)
T202C 008:359 JLINK_ReadReg(R13)  returns 0x20000660 (0000ms, 0884ms total)
T202C 008:359 JLINK_ReadReg(R14)  returns 0x080004A3 (0000ms, 0884ms total)
T202C 008:359 JLINK_ReadReg(R15)  returns 0x0800043C (0000ms, 0884ms total)
T202C 008:359 JLINK_ReadReg(XPSR)  returns 0x21000000 (0000ms, 0884ms total)
T202C 008:359 JLINK_ReadReg(MSP)  returns 0x20000660 (0000ms, 0884ms total)
T202C 008:359 JLINK_ReadReg(PSP)  returns 0x20000800 (0000ms, 0884ms total)
T202C 008:359 JLINK_ReadReg(CFBP)  returns 0x00000000 (0000ms, 0884ms total)
T31D4 008:359 JLINK_ReadMem (0x20000664, 0x0004 Bytes, ...) -- CPU_ReadMem(64 bytes @ 0x20000640) -- Updating C cache (64 bytes @ 0x20000640) -- Read from C cache (4 bytes @ 0x20000664) -- Data:  DF 01 00 08  returns 0x00 (0002ms, 0884ms total)
T31D4 008:361 JLINK_WriteReg(R0, 0x20000068)  returns 0x00 (0000ms, 0886ms total)
T31D4 008:361 JLINK_WriteReg(R1, 0x20000268)  returns 0x00 (0000ms, 0886ms total)
T31D4 008:361 JLINK_WriteReg(R2, 0x20000268)  returns 0x00 (0000ms, 0886ms total)
T31D4 008:361 JLINK_WriteReg(R3, 0x20000268)  returns 0x00 (0000ms, 0886ms total)
T31D4 008:361 JLINK_WriteReg(R4, 0x00000000)  returns 0x00 (0000ms, 0886ms total)
T31D4 008:361 JLINK_WriteReg(R5, 0x20000008)  returns 0x00 (0000ms, 0886ms total)
T31D4 008:361 JLINK_WriteReg(R6, 0x00000000)  returns 0x00 (0000ms, 0886ms total)
T31D4 008:361 JLINK_WriteReg(R7, 0x00000000)  returns 0x00 (0000ms, 0886ms total)
T31D4 008:361 JLINK_WriteReg(R8, 0x00000000)  returns 0x00 (0000ms, 0886ms total)
T31D4 008:361 JLINK_WriteReg(R9, 0x20000160)  returns 0x00 (0000ms, 0886ms total)
T31D4 008:361 JLINK_WriteReg(R10, 0x08000558)  returns 0x00 (0000ms, 0886ms total)
T31D4 008:361 JLINK_WriteReg(R11, 0x00000000)  returns 0x00 (0000ms, 0886ms total)
T31D4 008:361 JLINK_WriteReg(R12, 0x20000048)  returns 0x00 (0000ms, 0886ms total)
T31D4 008:361 JLINK_WriteReg(R13, 0x20000660)  returns 0x00 (0000ms, 0886ms total)
T31D4 008:361 JLINK_WriteReg(R14, 0x080004A3)  returns 0x00 (0000ms, 0886ms total)
T31D4 008:361 JLINK_WriteReg(R15, 0x0800043C)  returns 0x00 (0000ms, 0886ms total)
T31D4 008:361 JLINK_WriteReg(XPSR, 0x21000000)  returns 0x00 (0000ms, 0886ms total)
T31D4 008:361 JLINK_WriteReg(MSP, 0x20000660)  returns 0x00 (0000ms, 0886ms total)
T31D4 008:361 JLINK_WriteReg(PSP, 0x20000800)  returns 0x00 (0000ms, 0886ms total)
T31D4 008:361 JLINK_WriteReg(CFBP, 0x00000000)  returns 0x00 (0000ms, 0886ms total)
T31D4 008:361 JLINK_ReadReg(R0)  returns 0x20000068 (0000ms, 0886ms total)
T31D4 008:361 JLINK_ReadReg(R1)  returns 0x20000268 (0000ms, 0886ms total)
T31D4 008:361 JLINK_ReadReg(R2)  returns 0x20000268 (0000ms, 0886ms total)
T31D4 008:361 JLINK_ReadReg(R3)  returns 0x20000268 (0000ms, 0886ms total)
T31D4 008:361 JLINK_ReadReg(R4)  returns 0x00000000 (0000ms, 0886ms total)
T31D4 008:361 JLINK_ReadReg(R5)  returns 0x20000008 (0000ms, 0886ms total)
T31D4 008:361 JLINK_ReadReg(R6)  returns 0x00000000 (0000ms, 0886ms total)
T31D4 008:361 JLINK_ReadReg(R7)  returns 0x00000000 (0000ms, 0886ms total)
T31D4 008:361 JLINK_ReadReg(R8)  returns 0x00000000 (0000ms, 0886ms total)
T31D4 008:361 JLINK_ReadReg(R9)  returns 0x20000160 (0000ms, 0886ms total)
T31D4 008:361 JLINK_ReadReg(R10)  returns 0x08000558 (0000ms, 0886ms total)
T31D4 008:361 JLINK_ReadReg(R11)  returns 0x00000000 (0000ms, 0886ms total)
T31D4 008:361 JLINK_ReadReg(R12)  returns 0x20000048 (0000ms, 0886ms total)
T31D4 008:361 JLINK_ReadReg(R13)  returns 0x20000660 (0001ms, 0886ms total)
T31D4 008:362 JLINK_ReadReg(R14)  returns 0x080004A3 (0000ms, 0887ms total)
T31D4 008:362 JLINK_ReadReg(R15)  returns 0x0800043C (0000ms, 0887ms total)
T31D4 008:362 JLINK_ReadReg(XPSR)  returns 0x21000000 (0000ms, 0887ms total)
T31D4 008:362 JLINK_ReadReg(MSP)  returns 0x20000660 (0000ms, 0887ms total)
T31D4 008:362 JLINK_ReadReg(PSP)  returns 0x20000800 (0000ms, 0887ms total)
T31D4 008:362 JLINK_ReadReg(CFBP)  returns 0x00000000 (0000ms, 0887ms total)
T31D4 008:362 JLINK_ReadMemU32(0xE0001004, 0x0001 Items, ...) -- CPU_ReadMem(4 bytes @ 0xE0001004) -- Data:  5F 16 00 00  returns 0x01 (0001ms, 0887ms total)
T202C 010:462 JLINK_ReadMem (0x0800043C, 0x003C Bytes, ...) -- CPU_ReadMem(128 bytes @ 0x08000400) -- Updating C cache (128 bytes @ 0x08000400) -- Read from C cache (60 bytes @ 0x0800043C) -- Data:  12 48 10 B5 01 68 41 F0 01 01 01 60 41 68 10 4A ...  returns 0x00 (0003ms, 0888ms total)
T202C 010:465 JLINK_Step() -- Read from C cache (2 bytes @ 0x0800043C) -- Not simulated -- CPU_WriteMem(4 bytes @ 0xE0002008) -- CPU_WriteMem(4 bytes @ 0xE000200C) -- CPU_WriteMem(4 bytes @ 0xE0002010) -- CPU_WriteMem(4 bytes @ 0xE0002014) -- CPU_WriteMem(4 bytes @ 0xE0002018) -- CPU_WriteMem(4 bytes @ 0xE000201C)  returns 0x00 (0015ms, 0891ms total)
T202C 010:480 JLINK_ReadReg(R15)  returns 0x0800043E (0000ms, 0906ms total)
T202C 010:480 JLINK_ReadReg(XPSR)  returns 0x21000000 (0000ms, 0906ms total)
T202C 010:481 JLINK_ReadReg(R0)  returns 0x40021000 (0000ms, 0906ms total)
T202C 010:481 JLINK_ReadReg(R1)  returns 0x20000268 (0000ms, 0906ms total)
T202C 010:481 JLINK_ReadReg(R2)  returns 0x20000268 (0000ms, 0906ms total)
T202C 010:481 JLINK_ReadReg(R3)  returns 0x20000268 (0000ms, 0906ms total)
T202C 010:481 JLINK_ReadReg(R4)  returns 0x00000000 (0000ms, 0906ms total)
T202C 010:481 JLINK_ReadReg(R5)  returns 0x20000008 (0000ms, 0906ms total)
T202C 010:481 JLINK_ReadReg(R6)  returns 0x00000000 (0000ms, 0906ms total)
T202C 010:481 JLINK_ReadReg(R7)  returns 0x00000000 (0000ms, 0906ms total)
T202C 010:481 JLINK_ReadReg(R8)  returns 0x00000000 (0000ms, 0906ms total)
T202C 010:481 JLINK_ReadReg(R9)  returns 0x20000160 (0000ms, 0906ms total)
T202C 010:481 JLINK_ReadReg(R10)  returns 0x08000558 (0000ms, 0906ms total)
T202C 010:481 JLINK_ReadReg(R11)  returns 0x00000000 (0000ms, 0906ms total)
T202C 010:481 JLINK_ReadReg(R12)  returns 0x20000048 (0000ms, 0906ms total)
T202C 010:481 JLINK_ReadReg(R13)  returns 0x20000660 (0000ms, 0906ms total)
T202C 010:481 JLINK_ReadReg(R14)  returns 0x080004A3 (0000ms, 0906ms total)
T202C 010:481 JLINK_ReadReg(R15)  returns 0x0800043E (0000ms, 0906ms total)
T202C 010:481 JLINK_ReadReg(XPSR)  returns 0x21000000 (0000ms, 0906ms total)
T202C 010:481 JLINK_ReadReg(MSP)  returns 0x20000660 (0000ms, 0906ms total)
T202C 010:481 JLINK_ReadReg(PSP)  returns 0x20000800 (0000ms, 0906ms total)
T202C 010:481 JLINK_ReadReg(CFBP)  returns 0x00000000 (0000ms, 0906ms total)
T31D4 010:481 JLINK_ReadMem (0x20000664, 0x0004 Bytes, ...) -- CPU_ReadMem(64 bytes @ 0x20000640) -- Updating C cache (64 bytes @ 0x20000640) -- Read from C cache (4 bytes @ 0x20000664) -- Data:  DF 01 00 08  returns 0x00 (0002ms, 0906ms total)
T31D4 010:483 JLINK_WriteReg(R0, 0x40021000)  returns 0x00 (0000ms, 0908ms total)
T31D4 010:483 JLINK_WriteReg(R1, 0x20000268)  returns 0x00 (0000ms, 0908ms total)
T31D4 010:483 JLINK_WriteReg(R2, 0x20000268)  returns 0x00 (0000ms, 0908ms total)
T31D4 010:483 JLINK_WriteReg(R3, 0x20000268)  returns 0x00 (0000ms, 0908ms total)
T31D4 010:483 JLINK_WriteReg(R4, 0x00000000)  returns 0x00 (0000ms, 0908ms total)
T31D4 010:483 JLINK_WriteReg(R5, 0x20000008)  returns 0x00 (0000ms, 0908ms total)
T31D4 010:483 JLINK_WriteReg(R6, 0x00000000)  returns 0x00 (0000ms, 0908ms total)
T31D4 010:483 JLINK_WriteReg(R7, 0x00000000)  returns 0x00 (0000ms, 0908ms total)
T31D4 010:483 JLINK_WriteReg(R8, 0x00000000)  returns 0x00 (0000ms, 0908ms total)
T31D4 010:483 JLINK_WriteReg(R9, 0x20000160)  returns 0x00 (0000ms, 0908ms total)
T31D4 010:483 JLINK_WriteReg(R10, 0x08000558)  returns 0x00 (0000ms, 0908ms total)
T31D4 010:483 JLINK_WriteReg(R11, 0x00000000)  returns 0x00 (0000ms, 0908ms total)
T31D4 010:483 JLINK_WriteReg(R12, 0x20000048)  returns 0x00 (0000ms, 0908ms total)
T31D4 010:483 JLINK_WriteReg(R13, 0x20000660)  returns 0x00 (0000ms, 0908ms total)
T31D4 010:483 JLINK_WriteReg(R14, 0x080004A3)  returns 0x00 (0000ms, 0908ms total)
T31D4 010:483 JLINK_WriteReg(R15, 0x0800043E)  returns 0x00 (0000ms, 0908ms total)
T31D4 010:483 JLINK_WriteReg(XPSR, 0x21000000)  returns 0x00 (0000ms, 0908ms total)
T31D4 010:483 JLINK_WriteReg(MSP, 0x20000660)  returns 0x00 (0000ms, 0908ms total)
T31D4 010:483 JLINK_WriteReg(PSP, 0x20000800)  returns 0x00 (0000ms, 0908ms total)
T31D4 010:483 JLINK_WriteReg(CFBP, 0x00000000)  returns 0x00 (0000ms, 0908ms total)
T31D4 010:483 JLINK_ReadReg(R0)  returns 0x40021000 (0000ms, 0908ms total)
T31D4 010:483 JLINK_ReadReg(R1)  returns 0x20000268 (0000ms, 0908ms total)
T31D4 010:483 JLINK_ReadReg(R2)  returns 0x20000268 (0000ms, 0908ms total)
T31D4 010:483 JLINK_ReadReg(R3)  returns 0x20000268 (0000ms, 0908ms total)
T31D4 010:483 JLINK_ReadReg(R4)  returns 0x00000000 (0000ms, 0908ms total)
T31D4 010:483 JLINK_ReadReg(R5)  returns 0x20000008 (0000ms, 0908ms total)
T31D4 010:483 JLINK_ReadReg(R6)  returns 0x00000000 (0000ms, 0908ms total)
T31D4 010:483 JLINK_ReadReg(R7)  returns 0x00000000 (0000ms, 0908ms total)
T31D4 010:483 JLINK_ReadReg(R8)  returns 0x00000000 (0000ms, 0908ms total)
T31D4 010:483 JLINK_ReadReg(R9)  returns 0x20000160 (0000ms, 0908ms total)
T31D4 010:483 JLINK_ReadReg(R10)  returns 0x08000558 (0000ms, 0908ms total)
T31D4 010:483 JLINK_ReadReg(R11)  returns 0x00000000 (0000ms, 0908ms total)
T31D4 010:483 JLINK_ReadReg(R12)  returns 0x20000048 (0000ms, 0908ms total)
T31D4 010:483 JLINK_ReadReg(R13)  returns 0x20000660 (0000ms, 0908ms total)
T31D4 010:483 JLINK_ReadReg(R14)  returns 0x080004A3 (0000ms, 0908ms total)
T31D4 010:483 JLINK_ReadReg(R15)  returns 0x0800043E (0000ms, 0908ms total)
T31D4 010:483 JLINK_ReadReg(XPSR)  returns 0x21000000 (0000ms, 0908ms total)
T31D4 010:483 JLINK_ReadReg(MSP)  returns 0x20000660 (0000ms, 0908ms total)
T31D4 010:483 JLINK_ReadReg(PSP)  returns 0x20000800 (0000ms, 0908ms total)
T31D4 010:483 JLINK_ReadReg(CFBP)  returns 0x00000000 (0000ms, 0908ms total)
T31D4 010:484 JLINK_ReadMemU32(0xE0001004, 0x0001 Items, ...) -- CPU_ReadMem(4 bytes @ 0xE0001004) -- Data:  64 16 00 00  returns 0x01 (0000ms, 0908ms total)
T202C 011:062 JLINK_ReadMem (0x0800043E, 0x0002 Bytes, ...) -- CPU_ReadMem(64 bytes @ 0x08000400) -- Updating C cache (64 bytes @ 0x08000400) -- Read from C cache (2 bytes @ 0x0800043E) -- Data:  10 B5  returns 0x00 (0002ms, 0908ms total)
T202C 011:064 JLINK_ReadMem (0x08000440, 0x003C Bytes, ...) -- CPU_ReadMem(64 bytes @ 0x08000440) -- Updating C cache (64 bytes @ 0x08000440) -- Read from C cache (60 bytes @ 0x08000440) -- Data:  01 68 41 F0 01 01 01 60 41 68 10 4A 11 40 41 60 ...  returns 0x00 (0001ms, 0910ms total)
T202C 011:065 JLINK_Step() -- Read from C cache (2 bytes @ 0x0800043E) -- Not simulated -- CPU_WriteMem(4 bytes @ 0xE0002008) -- CPU_WriteMem(4 bytes @ 0xE000200C) -- CPU_WriteMem(4 bytes @ 0xE0002010) -- CPU_WriteMem(4 bytes @ 0xE0002014) -- CPU_WriteMem(4 bytes @ 0xE0002018) -- CPU_WriteMem(4 bytes @ 0xE000201C)  returns 0x00 (0016ms, 0911ms total)
T202C 011:081 JLINK_ReadReg(R15)  returns 0x08000440 (0000ms, 0927ms total)
T202C 011:081 JLINK_ReadReg(XPSR)  returns 0x21000000 (0000ms, 0927ms total)
T202C 011:081 JLINK_ReadReg(R0)  returns 0x40021000 (0000ms, 0927ms total)
T202C 011:081 JLINK_ReadReg(R1)  returns 0x20000268 (0000ms, 0927ms total)
T202C 011:081 JLINK_ReadReg(R2)  returns 0x20000268 (0000ms, 0927ms total)
T202C 011:081 JLINK_ReadReg(R3)  returns 0x20000268 (0000ms, 0927ms total)
T202C 011:081 JLINK_ReadReg(R4)  returns 0x00000000 (0000ms, 0927ms total)
T202C 011:081 JLINK_ReadReg(R5)  returns 0x20000008 (0000ms, 0927ms total)
T202C 011:081 JLINK_ReadReg(R6)  returns 0x00000000 (0000ms, 0927ms total)
T202C 011:081 JLINK_ReadReg(R7)  returns 0x00000000 (0000ms, 0927ms total)
T202C 011:081 JLINK_ReadReg(R8)  returns 0x00000000 (0000ms, 0927ms total)
T202C 011:081 JLINK_ReadReg(R9)  returns 0x20000160 (0000ms, 0927ms total)
T202C 011:081 JLINK_ReadReg(R10)  returns 0x08000558 (0000ms, 0927ms total)
T202C 011:081 JLINK_ReadReg(R11)  returns 0x00000000 (0000ms, 0927ms total)
T202C 011:081 JLINK_ReadReg(R12)  returns 0x20000048 (0000ms, 0927ms total)
T202C 011:081 JLINK_ReadReg(R13)  returns 0x20000658 (0000ms, 0927ms total)
T202C 011:081 JLINK_ReadReg(R14)  returns 0x080004A3 (0000ms, 0927ms total)
T202C 011:081 JLINK_ReadReg(R15)  returns 0x08000440 (0000ms, 0927ms total)
T202C 011:081 JLINK_ReadReg(XPSR)  returns 0x21000000 (0000ms, 0927ms total)
T202C 011:081 JLINK_ReadReg(MSP)  returns 0x20000658 (0000ms, 0927ms total)
T202C 011:081 JLINK_ReadReg(PSP)  returns 0x20000800 (0000ms, 0927ms total)
T202C 011:081 JLINK_ReadReg(CFBP)  returns 0x00000000 (0000ms, 0927ms total)
T202C 011:081 JLINK_ReadMem (0x2000065C, 0x0004 Bytes, ...) -- CPU_ReadMem(64 bytes @ 0x20000640) -- Updating C cache (64 bytes @ 0x20000640) -- Read from C cache (4 bytes @ 0x2000065C) -- Data:  A3 04 00 08  returns 0x00 (0002ms, 0927ms total)
T31D4 011:083 JLINK_ReadMem (0x20000658, 0x0004 Bytes, ...) -- Read from C cache (4 bytes @ 0x20000658) -- Data:  00 00 00 00  returns 0x00 (0000ms, 0929ms total)
T31D4 011:083 JLINK_ReadMem (0x20000664, 0x0004 Bytes, ...) -- Read from C cache (4 bytes @ 0x20000664) -- Data:  DF 01 00 08  returns 0x00 (0000ms, 0929ms total)
T31D4 011:083 JLINK_WriteReg(R0, 0x40021000)  returns 0x00 (0000ms, 0929ms total)
T31D4 011:083 JLINK_WriteReg(R1, 0x20000268)  returns 0x00 (0000ms, 0929ms total)
T31D4 011:083 JLINK_WriteReg(R2, 0x20000268)  returns 0x00 (0000ms, 0929ms total)
T31D4 011:083 JLINK_WriteReg(R3, 0x20000268)  returns 0x00 (0000ms, 0929ms total)
T31D4 011:083 JLINK_WriteReg(R4, 0x00000000)  returns 0x00 (0000ms, 0929ms total)
T31D4 011:083 JLINK_WriteReg(R5, 0x20000008)  returns 0x00 (0000ms, 0929ms total)
T31D4 011:083 JLINK_WriteReg(R6, 0x00000000)  returns 0x00 (0000ms, 0929ms total)
T31D4 011:083 JLINK_WriteReg(R7, 0x00000000)  returns 0x00 (0000ms, 0929ms total)
T31D4 011:083 JLINK_WriteReg(R8, 0x00000000)  returns 0x00 (0000ms, 0929ms total)
T31D4 011:083 JLINK_WriteReg(R9, 0x20000160)  returns 0x00 (0000ms, 0929ms total)
T31D4 011:083 JLINK_WriteReg(R10, 0x08000558)  returns 0x00 (0000ms, 0929ms total)
T31D4 011:083 JLINK_WriteReg(R11, 0x00000000)  returns 0x00 (0000ms, 0929ms total)
T31D4 011:083 JLINK_WriteReg(R12, 0x20000048)  returns 0x00 (0000ms, 0929ms total)
T31D4 011:083 JLINK_WriteReg(R13, 0x20000658)  returns 0x00 (0000ms, 0929ms total)
T31D4 011:083 JLINK_WriteReg(R14, 0x080004A3)  returns 0x00 (0000ms, 0929ms total)
T31D4 011:083 JLINK_WriteReg(R15, 0x08000440)  returns 0x00 (0000ms, 0929ms total)
T31D4 011:083 JLINK_WriteReg(XPSR, 0x21000000)  returns 0x00 (0000ms, 0929ms total)
T31D4 011:083 JLINK_WriteReg(MSP, 0x20000658)  returns 0x00 (0000ms, 0929ms total)
T31D4 011:083 JLINK_WriteReg(PSP, 0x20000800)  returns 0x00 (0000ms, 0929ms total)
T31D4 011:083 JLINK_WriteReg(CFBP, 0x00000000)  returns 0x00 (0000ms, 0929ms total)
T31D4 011:083 JLINK_ReadReg(R0)  returns 0x40021000 (0000ms, 0929ms total)
T31D4 011:083 JLINK_ReadReg(R1)  returns 0x20000268 (0000ms, 0929ms total)
T31D4 011:083 JLINK_ReadReg(R2)  returns 0x20000268 (0000ms, 0929ms total)
T31D4 011:083 JLINK_ReadReg(R3)  returns 0x20000268 (0000ms, 0929ms total)
T31D4 011:083 JLINK_ReadReg(R4)  returns 0x00000000 (0000ms, 0929ms total)
T31D4 011:083 JLINK_ReadReg(R5)  returns 0x20000008 (0000ms, 0929ms total)
T31D4 011:083 JLINK_ReadReg(R6)  returns 0x00000000 (0000ms, 0929ms total)
T31D4 011:083 JLINK_ReadReg(R7)  returns 0x00000000 (0000ms, 0929ms total)
T31D4 011:083 JLINK_ReadReg(R8)  returns 0x00000000 (0000ms, 0929ms total)
T31D4 011:083 JLINK_ReadReg(R9)  returns 0x20000160 (0000ms, 0929ms total)
T31D4 011:083 JLINK_ReadReg(R10)  returns 0x08000558 (0000ms, 0929ms total)
T31D4 011:083 JLINK_ReadReg(R11)  returns 0x00000000 (0000ms, 0929ms total)
T31D4 011:083 JLINK_ReadReg(R12)  returns 0x20000048 (0000ms, 0929ms total)
T31D4 011:084 JLINK_ReadReg(R13)  returns 0x20000658 (0000ms, 0929ms total)
T31D4 011:084 JLINK_ReadReg(R14)  returns 0x080004A3 (0000ms, 0929ms total)
T31D4 011:084 JLINK_ReadReg(R15)  returns 0x08000440 (0000ms, 0929ms total)
T31D4 011:084 JLINK_ReadReg(XPSR)  returns 0x21000000 (0000ms, 0929ms total)
T31D4 011:084 JLINK_ReadReg(MSP)  returns 0x20000658 (0000ms, 0929ms total)
T31D4 011:084 JLINK_ReadReg(PSP)  returns 0x20000800 (0000ms, 0929ms total)
T31D4 011:084 JLINK_ReadReg(CFBP)  returns 0x00000000 (0000ms, 0929ms total)
T31D4 011:084 JLINK_ReadMemU32(0xE0001004, 0x0001 Items, ...) -- CPU_ReadMem(4 bytes @ 0xE0001004) -- Data:  67 16 00 00  returns 0x01 (0001ms, 0929ms total)
T31D4 011:090 JLINK_ReadMem (0x08000440, 0x003C Bytes, ...) -- CPU_ReadMem(64 bytes @ 0x08000440) -- Updating C cache (64 bytes @ 0x08000440) -- Read from C cache (60 bytes @ 0x08000440) -- Data:  01 68 41 F0 01 01 01 60 41 68 10 4A 11 40 41 60 ...  returns 0x00 (0002ms, 0930ms total)
T202C 011:717 JLINK_Step() -- Read from C cache (2 bytes @ 0x08000440) -- Not simulated -- CPU_WriteMem(4 bytes @ 0xE0002008) -- CPU_WriteMem(4 bytes @ 0xE000200C) -- CPU_WriteMem(4 bytes @ 0xE0002010) -- CPU_WriteMem(4 bytes @ 0xE0002014) -- CPU_WriteMem(4 bytes @ 0xE0002018) -- CPU_WriteMem(4 bytes @ 0xE000201C)  returns 0x00 (0015ms, 0932ms total)
T202C 011:732 JLINK_ReadReg(R15)  returns 0x08000442 (0000ms, 0947ms total)
T202C 011:732 JLINK_ReadReg(XPSR)  returns 0x21000000 (0000ms, 0947ms total)
T202C 011:732 JLINK_ReadReg(R0)  returns 0x40021000 (0000ms, 0947ms total)
T202C 011:732 JLINK_ReadReg(R1)  returns 0x0F035C83 (0000ms, 0947ms total)
T202C 011:732 JLINK_ReadReg(R2)  returns 0x20000268 (0000ms, 0947ms total)
T202C 011:732 JLINK_ReadReg(R3)  returns 0x20000268 (0000ms, 0947ms total)
T202C 011:732 JLINK_ReadReg(R4)  returns 0x00000000 (0000ms, 0947ms total)
T202C 011:732 JLINK_ReadReg(R5)  returns 0x20000008 (0001ms, 0947ms total)
T202C 011:733 JLINK_ReadReg(R6)  returns 0x00000000 (0000ms, 0948ms total)
T202C 011:733 JLINK_ReadReg(R7)  returns 0x00000000 (0000ms, 0948ms total)
T202C 011:733 JLINK_ReadReg(R8)  returns 0x00000000 (0000ms, 0948ms total)
T202C 011:733 JLINK_ReadReg(R9)  returns 0x20000160 (0000ms, 0948ms total)
T202C 011:733 JLINK_ReadReg(R10)  returns 0x08000558 (0000ms, 0948ms total)
T202C 011:733 JLINK_ReadReg(R11)  returns 0x00000000 (0000ms, 0948ms total)
T202C 011:733 JLINK_ReadReg(R12)  returns 0x20000048 (0000ms, 0948ms total)
T202C 011:733 JLINK_ReadReg(R13)  returns 0x20000658 (0000ms, 0948ms total)
T202C 011:733 JLINK_ReadReg(R14)  returns 0x080004A3 (0000ms, 0948ms total)
T202C 011:733 JLINK_ReadReg(R15)  returns 0x08000442 (0000ms, 0948ms total)
T202C 011:733 JLINK_ReadReg(XPSR)  returns 0x21000000 (0000ms, 0948ms total)
T202C 011:733 JLINK_ReadReg(MSP)  returns 0x20000658 (0000ms, 0948ms total)
T202C 011:733 JLINK_ReadReg(PSP)  returns 0x20000800 (0000ms, 0948ms total)
T202C 011:733 JLINK_ReadReg(CFBP)  returns 0x00000000 (0000ms, 0948ms total)
T202C 011:733 JLINK_ReadMem (0x2000065C, 0x0004 Bytes, ...) -- CPU_ReadMem(64 bytes @ 0x20000640) -- Updating C cache (64 bytes @ 0x20000640) -- Read from C cache (4 bytes @ 0x2000065C) -- Data:  A3 04 00 08  returns 0x00 (0001ms, 0948ms total)
T31D4 011:734 JLINK_ReadMem (0x20000658, 0x0004 Bytes, ...) -- Read from C cache (4 bytes @ 0x20000658) -- Data:  00 00 00 00  returns 0x00 (0000ms, 0949ms total)
T31D4 011:735 JLINK_ReadMem (0x20000664, 0x0004 Bytes, ...) -- Read from C cache (4 bytes @ 0x20000664) -- Data:  DF 01 00 08  returns 0x00 (0000ms, 0949ms total)
T31D4 011:735 JLINK_WriteReg(R0, 0x40021000)  returns 0x00 (0000ms, 0949ms total)
T31D4 011:735 JLINK_WriteReg(R1, 0x0F035C83)  returns 0x00 (0000ms, 0949ms total)
T31D4 011:735 JLINK_WriteReg(R2, 0x20000268)  returns 0x00 (0000ms, 0949ms total)
T31D4 011:735 JLINK_WriteReg(R3, 0x20000268)  returns 0x00 (0000ms, 0949ms total)
T31D4 011:735 JLINK_WriteReg(R4, 0x00000000)  returns 0x00 (0000ms, 0949ms total)
T31D4 011:735 JLINK_WriteReg(R5, 0x20000008)  returns 0x00 (0000ms, 0949ms total)
T31D4 011:735 JLINK_WriteReg(R6, 0x00000000)  returns 0x00 (0000ms, 0949ms total)
T31D4 011:735 JLINK_WriteReg(R7, 0x00000000)  returns 0x00 (0000ms, 0949ms total)
T31D4 011:735 JLINK_WriteReg(R8, 0x00000000)  returns 0x00 (0000ms, 0949ms total)
T31D4 011:735 JLINK_WriteReg(R9, 0x20000160)  returns 0x00 (0000ms, 0949ms total)
T31D4 011:735 JLINK_WriteReg(R10, 0x08000558)  returns 0x00 (0000ms, 0949ms total)
T31D4 011:735 JLINK_WriteReg(R11, 0x00000000)  returns 0x00 (0000ms, 0949ms total)
T31D4 011:735 JLINK_WriteReg(R12, 0x20000048)  returns 0x00 (0000ms, 0949ms total)
T31D4 011:735 JLINK_WriteReg(R13, 0x20000658)  returns 0x00 (0000ms, 0949ms total)
T31D4 011:735 JLINK_WriteReg(R14, 0x080004A3)  returns 0x00 (0000ms, 0949ms total)
T31D4 011:735 JLINK_WriteReg(R15, 0x08000442)  returns 0x00 (0000ms, 0949ms total)
T31D4 011:735 JLINK_WriteReg(XPSR, 0x21000000)  returns 0x00 (0000ms, 0949ms total)
T31D4 011:735 JLINK_WriteReg(MSP, 0x20000658)  returns 0x00 (0000ms, 0949ms total)
T31D4 011:735 JLINK_WriteReg(PSP, 0x20000800)  returns 0x00 (0000ms, 0949ms total)
T31D4 011:735 JLINK_WriteReg(CFBP, 0x00000000)  returns 0x00 (0000ms, 0949ms total)
T31D4 011:735 JLINK_ReadReg(R0)  returns 0x40021000 (0000ms, 0949ms total)
T31D4 011:735 JLINK_ReadReg(R1)  returns 0x0F035C83 (0000ms, 0949ms total)
T31D4 011:735 JLINK_ReadReg(R2)  returns 0x20000268 (0000ms, 0949ms total)
T31D4 011:735 JLINK_ReadReg(R3)  returns 0x20000268 (0000ms, 0949ms total)
T31D4 011:735 JLINK_ReadReg(R4)  returns 0x00000000 (0000ms, 0949ms total)
T31D4 011:735 JLINK_ReadReg(R5)  returns 0x20000008 (0000ms, 0949ms total)
T31D4 011:735 JLINK_ReadReg(R6)  returns 0x00000000 (0000ms, 0949ms total)
T31D4 011:735 JLINK_ReadReg(R7)  returns 0x00000000 (0000ms, 0949ms total)
T31D4 011:735 JLINK_ReadReg(R8)  returns 0x00000000 (0000ms, 0949ms total)
T31D4 011:735 JLINK_ReadReg(R9)  returns 0x20000160 (0000ms, 0949ms total)
T31D4 011:735 JLINK_ReadReg(R10)  returns 0x08000558 (0000ms, 0949ms total)
T31D4 011:735 JLINK_ReadReg(R11)  returns 0x00000000 (0000ms, 0949ms total)
T31D4 011:735 JLINK_ReadReg(R12)  returns 0x20000048 (0000ms, 0949ms total)
T31D4 011:735 JLINK_ReadReg(R13)  returns 0x20000658 (0000ms, 0949ms total)
T31D4 011:735 JLINK_ReadReg(R14)  returns 0x080004A3 (0000ms, 0949ms total)
T31D4 011:735 JLINK_ReadReg(R15)  returns 0x08000442 (0000ms, 0949ms total)
T31D4 011:735 JLINK_ReadReg(XPSR)  returns 0x21000000 (0000ms, 0949ms total)
T31D4 011:735 JLINK_ReadReg(MSP)  returns 0x20000658 (0000ms, 0949ms total)
T31D4 011:735 JLINK_ReadReg(PSP)  returns 0x20000800 (0000ms, 0949ms total)
T31D4 011:735 JLINK_ReadReg(CFBP)  returns 0x00000000 (0000ms, 0949ms total)
T31D4 011:735 JLINK_ReadMemU32(0xE0001004, 0x0001 Items, ...) -- CPU_ReadMem(4 bytes @ 0xE0001004) -- Data:  6A 16 00 00  returns 0x01 (0001ms, 0949ms total)
T202C 012:263 JLINK_ReadMem (0x08000442, 0x0002 Bytes, ...) -- CPU_ReadMem(64 bytes @ 0x08000440) -- Updating C cache (64 bytes @ 0x08000440) -- Read from C cache (2 bytes @ 0x08000442) -- Data:  41 F0  returns 0x00 (0002ms, 0950ms total)
T202C 012:265 JLINK_ReadMem (0x08000444, 0x003C Bytes, ...) -- Read from C cache (60 bytes @ 0x08000444) -- Data:  01 01 01 60 41 68 10 4A 11 40 41 60 01 68 0F 4A ...  returns 0x00 (0000ms, 0952ms total)
T202C 012:265 JLINK_Step() -- Read from C cache (2 bytes @ 0x08000442) -- Not simulated -- CPU_WriteMem(4 bytes @ 0xE0002008) -- CPU_WriteMem(4 bytes @ 0xE000200C) -- CPU_WriteMem(4 bytes @ 0xE0002010) -- CPU_WriteMem(4 bytes @ 0xE0002014) -- CPU_WriteMem(4 bytes @ 0xE0002018) -- CPU_WriteMem(4 bytes @ 0xE000201C)  returns 0x00 (0015ms, 0952ms total)
T202C 012:280 JLINK_ReadReg(R15)  returns 0x08000446 (0000ms, 0967ms total)
T202C 012:280 JLINK_ReadReg(XPSR)  returns 0x21000000 (0000ms, 0967ms total)
T202C 012:280 JLINK_ReadReg(R0)  returns 0x40021000 (0000ms, 0967ms total)
T202C 012:280 JLINK_ReadReg(R1)  returns 0x0F035C83 (0000ms, 0967ms total)
T202C 012:280 JLINK_ReadReg(R2)  returns 0x20000268 (0000ms, 0967ms total)
T202C 012:280 JLINK_ReadReg(R3)  returns 0x20000268 (0001ms, 0967ms total)
T202C 012:281 JLINK_ReadReg(R4)  returns 0x00000000 (0000ms, 0968ms total)
